
**** 05/03/18 20:55:52 ********* PSpice 9.2 (Mar 2000) ******** ID# 1 ********

 ** Profile: "SCHEMATIC1-Trans"  [ D:\Radio\Devices\PS3604L\OrCad\rectifier\rectifier-schematic1-trans.sim ] 


 ****     CIRCUIT DESCRIPTION


******************************************************************************




** Creating circuit file "rectifier-schematic1-trans.sim.cir" 
** WARNING: THIS AUTOMATICALLY GENERATED FILE MAY BE OVERWRITTEN BY SUBSEQUENT SIMULATIONS

*Libraries: 
* Local Libraries :
* From [PSPICE NETLIST] section of c:\programfiles\Orcad\PSpice\PSpice.ini file:
.lib "C:\ProgramFiles\Orcad\Capture\Library\PSpice\nom.lib" 
.inc "C:\ProgramFiles\Orcad\Capture\Library\PSpice\nom.lib" 

*Analysis directives: 

**** INCLUDING nom.lib ****
* Library of standard devices: Analog and Digital

*  Copyright Cadence Design Systems, Inc. 2000 All Rights Reserved.
*
*
* $Revision:   1.3  $
* $Author:   HIRASUNA  $
* $Date:   11 May 2000 13:26:32  $

* This "master library" file calls out the other libraries which we supply.
* It takes time for PSpice to scan each library file.  PSpice creates an
* index file, called <filename>.IND, to speed up the search process.
* The index file is re-created whenever PSpice senses that it might be invalid.

* If the library search times are too long, you may want to "comment out"
* references to device libraries which you are not using.  Also, you can always
* bypass the library approach and simply copy the model or subcircuit which you
* need directly into your circuit file.

* utility subcircuits and models 

.lib "breakout.lib"             ; generic devices for schematic capture
.lib "filtsub.lib"              ; Filter biquad stages and LC ladder branches
.lib "tline.lib"                ; transmission line models and subcircuits

* "regular" device libraries

.lib "nom_dig.lib"              ; Digital (logic) devices - Requires "Digital Simulation"

.lib "1_shot.lib"               ; Monostable Multivibrators
.lib "ana_swit.lib"             ; Analog Switches
.lib "anl_misc.lib"             ; Miscellaneous circuits
.lib "bipolar.lib"              ; Bipolar transistors
.lib "dc_prim.lib"              ; Primitive models for DAC & ADC Schematic models
.lib "diode.lib"                ; Diodes
.lib "darlngtn.lib"             ; Darlington transistors
.lib "igbt.lib"                 ; IGBT transistors
.lib "jfet.lib"                 ; JFET transistors
.lib "linedriv.lib"             ; Line Drivers, Receivers and Transceivers
.lib "opamp.lib"                ; Linear ICs: op-amps, voltage comparators,
                                ; and voltage regulators
.lib "magnetic.lib"             ; Non-linear transformer cores
.lib "mix_misc.lib"             ; Miscellaneous circuits
.lib "opto.lib"                 ; Optocouplers
.lib "pwrbjt.lib"               ; Power bipolar transistors (BJTs)
.lib "pwrmos.lib"               ; Power MOSFETs
.lib "xtal.lib"                 ; Quartz crystals
.lib "thyristr.lib"             ; Thyristors - Requires "Analog Behavioral Modeling"
.lib "swit_rav.lib"             ; Average power supply models
.lib "swit_reg.lib"             ; Switchmode regulator controller models

* manufacturer's contributions

.lib "vendor.lib"               ; Vendor supplied analog models

* Japanese and European libraries

* The following library files are installed if/when you choose to load 
* the Japanese and/or European part libraries during installation.  Since 
* there is no guarantee that the user will elect to install these library 
* files, we have commented out these references so as not to cause a 
* "Cannot find library" error in PSpice.  Please remove the "*" preceding the 
* .lib reference to the library file(s) which you have installed.  
* Please note that once you have edited this library file, PSpice will 
* recreate the index file the first time [only] it is used.  Depending on 
* the size of the library file, this process can take some time.


.lib "japan.lib"              ; Japanese diodes, rectifiers, zeners,
                               ; varactors, Schottky diodes, BJTs,
                               ; JFETs, power BJTs, power MOSFETs, opamps.

.lib "europe.lib"             ; European parts


* end of library file

**** RESUMING rectifier-schematic1-trans.sim.cir ****
.TRAN  0 40ms 0 50us 
.PROBE V(*) I(*) W(*) D(*) NOISE(*) 
.INC ".\rectifier-SCHEMATIC1.net" 



**** INCLUDING rectifier-SCHEMATIC1.net ****
* source RECTIFIER
M_M4         N04862 N06657 0 0 IRF540
R_R7         0 N02971  10k  
M_M2         N041022 N03201 0 0 IRF540
C_C5         N04870 N03059  20000u  
D_ZD2         0 N03201 D1N4744A 
R_R14         N06741 N04862  10k  
C_C3         N04862 N06345  47u  
X_U3         N06565 N06353 N06345 N04862 N06269 LM139 
V_VS2         N04870 N04862  
+SIN 0 13.4 50 0 0 0
V_VS1         N05803 N04870  
+SIN 0 13.4 50 0 0 0
X_U1         N05987 N05807 N05811 N05803 N05819 LM139 
R_R13         0 N06953  4.7k  
R_R12         N06269 N06345  10k  
R_R8         N03201 N03059  10k  
X_U2         N02919 N02971 N03059 0 N03201 LM139 
R_R1         N05803 N05987  4.7k  
D_ZD3         N04862 N06269 D1N4744A 
R_R2         N05807 N03059  10k  
M_M3         N03059 N06269 N04862 N04862 IRF540
R_R10         N06353 N03059  10k  
D_D2         N05803 N06345 D1N4148 
R_R4         N05819 N05811  10k  
I_I2         N03059 0 DC 4Adc  
R_R77         N041022 N05803  0.008  
R_R15         0 N06741  10k  
D_ZD1         N05803 N05819 D1N4744A 
C_C2         0 N03059  47u  
D_D1         N04862 N05811 D1N4148 
D_ZD4         0 N06657 D1N4744A 
I_I1         N04870 0 DC 0.1Adc  
C_C1         N05803 N05811  47u  
R_R9         N04862 N06565  4.7k  
R_R6         N02971 N05803  10k  
C_C4         0 N03059  47u  
X_U4         N06953 N06741 N03059 0 N06657 LM139 
R_R3         N05803 N05807  10k  
R_R5         0 N02919  4.7k  
R_R16         N06657 N03059  10k  
R_R11         N04862 N06353  10k  
M_M1         N03059 N05819 N05803 N05803 IRF540
C_C6         0 N04870  20000u  

**** RESUMING rectifier-schematic1-trans.sim.cir ****
.END

**** 05/03/18 20:55:52 ********* PSpice 9.2 (Mar 2000) ******** ID# 1 ********

 ** Profile: "SCHEMATIC1-Trans"  [ D:\Radio\Devices\PS3604L\OrCad\rectifier\rectifier-schematic1-trans.sim ] 


 ****     Diode MODEL PARAMETERS


******************************************************************************




               D1N4744A        D1N4148         X_U3.dx         X_U1.dx         
          IS    4.997600E-24    2.682000E-09  800.000000E-18  800.000000E-18 
           N    1.6405          1.836                                        
         ISR    2.247333E-06    1.565000E-09                                 
          NR    2.89714                                                      
         IKF                     .04417                                      
          BV   15.048         100                                            
         IBV     .1296        100.000000E-06                                 
          RS     .21797          .5664          1               1            
          TT  605.000000E-09   11.540000E-09                                 
         CJO  260.000000E-12    4.000000E-12                                 
          VJ     .46328          .5                                          
           M     .2466           .3333                                       


               X_U2.dx         X_U4.dx         
          IS  800.000000E-18  800.000000E-18 
          RS    1               1            


**** 05/03/18 20:55:52 ********* PSpice 9.2 (Mar 2000) ******** ID# 1 ********

 ** Profile: "SCHEMATIC1-Trans"  [ D:\Radio\Devices\PS3604L\OrCad\rectifier\rectifier-schematic1-trans.sim ] 


 ****     BJT MODEL PARAMETERS


******************************************************************************




               X_U3.qin        X_U3.qmi        X_U3.qmo        X_U3.qoc        
               PNP             NPN             NPN             NPN             
          IS  800.000000E-18  800.000000E-18  800.000000E-18  800.000000E-18 
          BF    2.000000E+03    1.002000E+03    1.000000E+03   20.690000E+03 
          NF    1               1               1               1            
          BR    1               1               1               1            
          NR    1               1               1               1            
         CJC                                    1.000000E-15    1.000000E-15 
          TF                                                    3.540000E-09 
          TR                                  475.400000E-09  472.800000E-09 
          CN    2.2             2.42            2.42            2.42         
           D     .52             .87             .87             .87         


               X_U1.qin        X_U1.qmi        X_U1.qmo        X_U1.qoc        
               PNP             NPN             NPN             NPN             
          IS  800.000000E-18  800.000000E-18  800.000000E-18  800.000000E-18 
          BF    2.000000E+03    1.002000E+03    1.000000E+03   20.690000E+03 
          NF    1               1               1               1            
          BR    1               1               1               1            
          NR    1               1               1               1            
         CJC                                    1.000000E-15    1.000000E-15 
          TF                                                    3.540000E-09 
          TR                                  475.400000E-09  472.800000E-09 
          CN    2.2             2.42            2.42            2.42         
           D     .52             .87             .87             .87         


               X_U2.qin        X_U2.qmi        X_U2.qmo        X_U2.qoc        
               PNP             NPN             NPN             NPN             
          IS  800.000000E-18  800.000000E-18  800.000000E-18  800.000000E-18 
          BF    2.000000E+03    1.002000E+03    1.000000E+03   20.690000E+03 
          NF    1               1               1               1            
          BR    1               1               1               1            
          NR    1               1               1               1            
         CJC                                    1.000000E-15    1.000000E-15 
          TF                                                    3.540000E-09 
          TR                                  475.400000E-09  472.800000E-09 
          CN    2.2             2.42            2.42            2.42         
           D     .52             .87             .87             .87         


               X_U4.qin        X_U4.qmi        X_U4.qmo        X_U4.qoc        
               PNP             NPN             NPN             NPN             
          IS  800.000000E-18  800.000000E-18  800.000000E-18  800.000000E-18 
          BF    2.000000E+03    1.002000E+03    1.000000E+03   20.690000E+03 
          NF    1               1               1               1            
          BR    1               1               1               1            
          NR    1               1               1               1            
         CJC                                    1.000000E-15    1.000000E-15 
          TF                                                    3.540000E-09 
          TR                                  475.400000E-09  472.800000E-09 
          CN    2.2             2.42            2.42            2.42         
           D     .52             .87             .87             .87         


**** 05/03/18 20:55:52 ********* PSpice 9.2 (Mar 2000) ******** ID# 1 ********

 ** Profile: "SCHEMATIC1-Trans"  [ D:\Radio\Devices\PS3604L\OrCad\rectifier\rectifier-schematic1-trans.sim ] 


 ****     MOSFET MODEL PARAMETERS


******************************************************************************




               IRF540          
               NMOS            
       LEVEL    3            
           L    2.000000E-06 
           W     .94         
         VTO    3.136        
          KP   20.710000E-06 
       GAMMA    0            
         PHI     .6          
      LAMBDA    0            
          RD     .02252      
          RS     .02134      
          RG    5.557        
         RDS  444.400000E+03 
          IS    2.859000E-12 
          JS    0            
          PB     .8          
        PBSW     .8          
         CBD    2.408000E-09 
          CJ    0            
        CJSW    0            
          TT  142.000000E-09 
        CGSO    1.153000E-09 
        CGDO  445.700000E-12 
        CGBO    0            
         TOX  100.000000E-09 
          XJ    0            
       UCRIT   10.000000E+03 
       DELTA    0            
         ETA    0            
      DIOMOD    1            
         VFB    0            
        LETA    0            
        WETA    0            
          U0    0            
        TEMP    0            
         VDD    0            
       XPART    0            


**** 05/03/18 20:55:52 ********* PSpice 9.2 (Mar 2000) ******** ID# 1 ********

 ** Profile: "SCHEMATIC1-Trans"  [ D:\Radio\Devices\PS3604L\OrCad\rectifier\rectifier-schematic1-trans.sim ] 


 ****     INITIAL TRANSIENT SOLUTION       TEMPERATURE =   27.000 DEG C


******************************************************************************



 NODE   VOLTAGE     NODE   VOLTAGE     NODE   VOLTAGE     NODE   VOLTAGE


(N02919)-3.286E-09 (N02971)    -.3677 (N03059)   -1.4644 (N03201)    -.3167     

(N04862)    -.7358 (N04870)    -.7358 (N05803)    -.7358 (N05807)   -1.0998     

(N05811)   -1.2066 (N05819)    -.9375 (N05987)    -.7358 (N06269)    -.9375     

(N06345)   -1.2066 (N06353)   -1.0998 (N06565)    -.7358 (N06657)    -.3167     

(N06741)    -.3677 (N06953)-3.286E-09 (X_U1.7)     .3110 (X_U1.8)    -.0855     

(X_U1.9)    -.7179 (X_U2.7)    1.0432 (X_U2.8)     .6503 (X_U2.9)     .0179     

(X_U3.7)     .3110 (X_U3.8)    -.0855 (X_U3.9)    -.7179 (X_U4.7)    1.0432     

(X_U4.8)     .6503 (X_U4.9)     .0179 (N041022)    -.7251                       

(X_U1.10)    -.7179                   (X_U1.11)    -.7179                       

(X_U1.21)     .0142                   (X_U1.22)    -.3498                       

(X_U2.10)     .0179                   (X_U2.11)     .0179                       

(X_U2.21)     .7500                   (X_U2.22)     .3823                       

(X_U3.10)    -.7179                   (X_U3.11)    -.7179                       

(X_U3.21)     .0142                   (X_U3.22)    -.3498                       

(X_U4.10)     .0179                   (X_U4.11)     .0179                       

(X_U4.21)     .7500                   (X_U4.22)     .3823                   




    VOLTAGE SOURCE CURRENTS
    NAME         CURRENT

    V_VS2       -1.832E-01
    V_VS1       -8.321E-02
    X_U3.vi1    -6.942E-13
    X_U3.vi2     5.000E-08
    X_U3.v1      4.120E-12
    X_U1.vi1    -6.942E-13
    X_U1.vi2     5.000E-08
    X_U1.v1      4.120E-12
    X_U2.vi1    -6.992E-13
    X_U2.vi2     5.000E-08
    X_U2.v1      3.324E-10
    X_U4.vi1    -6.992E-13
    X_U4.vi2     5.000E-08
    X_U4.v1      3.324E-10

    TOTAL POWER DISSIPATION  -1.50E-07  WATTS



          JOB CONCLUDED

          TOTAL JOB TIME             .53
