
**** 08/08/16 01:46:47 ********* PSpice 9.2 (Mar 2000) ******** ID# 1 ********

 * D:\Radio\Devices\PS3608L\OrCad\CulerReg.sch


 ****     CIRCUIT DESCRIPTION


******************************************************************************




* Schematics Version 9.2
* Mon Aug 08 01:46:47 2016



** Analysis setup **
.tran 20ns 100ms


* From [PSPICE NETLIST] section of c:\programfiles\Orcad\PSpice\PSpice.ini:
.lib "nom.lib"

.INC "CulerReg.net"



**** INCLUDING CulerReg.net ****
* Schematics Netlist *



V_V7         $N_0001 0 2V
X_S2    $N_0002 $N_0001 $N_0003 0 CulerReg_S2 
V_V1         $N_0004 0 12V
C_C3         $N_0004 0  10u  
V_V8         $N_0002 0  
+PULSE 0 5 0us 5us 5us 5ms 10ms
R_R5         $N_0005 $N_0003  20  
R_R7         $N_0005 0  200  
Q_Q1         $N_0004 $N_0006 $N_0005 QBC817-16/PLP 
C_C5         $N_0006 0  10u  
V_V6         $N_0007 0  
+PULSE 0 11.5 0us 0.1us 0.1us 10us 10us
R_R1         $N_0006 $N_0007  10  

.subckt CulerReg_S2 1 2 3 4  
S_S2         3 4 1 2 Sbreak
RS_S2         1 2 1G
.ends CulerReg_S2

**** RESUMING CulerReg.cir ****
.PROBE V(*) I(*) W(*) D(*) NOISE(*) 


.END

**** 08/08/16 01:46:47 ********* PSpice 9.2 (Mar 2000) ******** ID# 1 ********

 * D:\Radio\Devices\PS3608L\OrCad\CulerReg.sch


 ****     BJT MODEL PARAMETERS


******************************************************************************




               QBC817-16/PLP   
               NPN             
          IS   36.150000E-15 
          BF  223            
          NF     .9932       
         VAF  157.9          
         IKF     .5913       
         ISE    2.649000E-15 
          NE    1.65         
          BR   25.47         
          NR     .992        
         VAR   25            
         IKR     .235        
         ISC   17.410000E-15 
          NC    1.119        
          RB    1            
         RBM    1            
         IRB    1.000000E+03 
          RE     .2246       
          RC     .17         
         CJE   42.020000E-12 
         VJE     .6357       
         MJE     .344        
         CJC   12.130000E-12 
         VJC     .3293       
         MJC     .3658       
        XCJC     .455        
         MJS     .333        
          FC     .8528       
          TF  586.900000E-12 
         XTF  220            
         VTF    2.846        
         ITF    6.136        
          TR   70.000000E-12 
          CN    2.42         
           D     .87         


**** 08/08/16 01:46:47 ********* PSpice 9.2 (Mar 2000) ******** ID# 1 ********

 * D:\Radio\Devices\PS3608L\OrCad\CulerReg.sch


 ****     Voltage Controlled Switch MODEL PARAMETERS


******************************************************************************




               Sbreak          
         RON    1            
        ROFF    1.000000E+06 
         VON    1            
        VOFF    0            


WARNING -- Pulse Period < (Rise Time + Fall Time + Pulse Width) for V_V6
WARNING -- Pulse Period < (Rise Time + Fall Time + Pulse Width) for V_V6
**** 08/08/16 01:46:47 ********* PSpice 9.2 (Mar 2000) ******** ID# 1 ********

 * D:\Radio\Devices\PS3608L\OrCad\CulerReg.sch


 ****     INITIAL TRANSIENT SOLUTION       TEMPERATURE =   27.000 DEG C


******************************************************************************



 NODE   VOLTAGE     NODE   VOLTAGE     NODE   VOLTAGE     NODE   VOLTAGE


($N_0001)    2.0000                   ($N_0002)    0.0000                       

($N_0003) 2.590E-09                   ($N_0004)   12.0000                       

($N_0005) 2.590E-09                   ($N_0006) 4.900E-12                       

($N_0007)    0.0000                   




    VOLTAGE SOURCE CURRENTS
    NAME         CURRENT

    V_V7        -2.002E-09
    V_V1        -1.344E-11
    V_V8         2.002E-09
    V_V6         4.900E-13

    TOTAL POWER DISSIPATION   4.17E-09  WATTS



          JOB CONCLUDED

          TOTAL JOB TIME            1.70
