
**** 09/29/16 20:54:08 ********* PSpice 9.2 (Mar 2000) ******** ID# 1 ********

 * D:\Radio\Devices\PS3608L\OrCad\Rectifier.sch


 ****     CIRCUIT DESCRIPTION


******************************************************************************




* Schematics Version 9.2
* Thu Sep 29 20:54:08 2016



** Analysis setup **
.tran 20n 15m


* From [PSPICE NETLIST] section of c:\programfiles\Orcad\PSpice\PSpice.ini:
.lib "nom.lib"

.INC "Rectifier.net"



**** INCLUDING Rectifier.net ****
* Schematics Netlist *



R_R1         $N_0001 0  2  
C_C2         $N_0001 0  1u  
R_R4         $N_0001 $N_0002  47k  
V_V2         $N_0003 0 10V
X_U1A         $N_0002 $N_0004 $N_0003 0 $N_0005 LM358
V_V1         $N_0006 0  
+SIN 0 14.1V 1000 0 0 0
R_R2         $N_0007 0  20  
X_D2         $N_0006 $N_0007 D120NQ045 
V_V4         $N_0008 0 10V
R_R3         $N_0008 $N_0004  47k  
M_M3         $N_0001 0 $N_0008 $N_0008 IRFP9140
R_R5         0 $N_0005  47k  

**** RESUMING Rectifier.cir ****
.PROBE V(*) I(*) W(*) D(*) NOISE(*) 


.END

**** 09/29/16 20:54:08 ********* PSpice 9.2 (Mar 2000) ******** ID# 1 ********

 * D:\Radio\Devices\PS3608L\OrCad\Rectifier.sch


 ****     Diode MODEL PARAMETERS


******************************************************************************




               X_D2.DFWD       X_D2.DLEAK      
          IS   11.137170E-06  186.070200E-12 
           N     .520057       99.2231       
         ISR  225.763900E-12                 
         IKF  184.112000E-06                 
          BV   44.905         100.000000E+03 
         IBV    2.586700E-03    1.000000E-03 
          RS    1.020740E-03     .1          
         CJO   11.509000E-09                 
          VJ     .75                         
           M     .49488                      
          EG     .69             .69         
         XTI    2               2            


               X_U1A.x_lm358.dx 
          IS  800.000000E-18 
          RS    1            


               X_U1A.x_lm358.dy 
          IS  800.000000E-18 
          RS    1.000000E-03 
         CJO   10.000000E-12 


**** 09/29/16 20:54:08 ********* PSpice 9.2 (Mar 2000) ******** ID# 1 ********

 * D:\Radio\Devices\PS3608L\OrCad\Rectifier.sch


 ****     BJT MODEL PARAMETERS


******************************************************************************




               X_U1A.x_lm358.qx 
               PNP             
          IS  800.000000E-18 
          BF  166.7          
          NF    1            
          BR    1            
          NR    1            
          CN    2.2          
           D     .52         


**** 09/29/16 20:54:08 ********* PSpice 9.2 (Mar 2000) ******** ID# 1 ********

 * D:\Radio\Devices\PS3608L\OrCad\Rectifier.sch


 ****     MOSFET MODEL PARAMETERS


******************************************************************************




               IRFP9140        
               PMOS            
       LEVEL    3            
           L    2.000000E-06 
           W    1.3          
         VTO   -3.157        
          KP   10.750000E-06 
       GAMMA    0            
         PHI     .6          
      LAMBDA    0            
          RD     .07735      
          RS     .04004      
          RG    5.183        
         RDS  444.400000E+03 
          IS    4.318000E-12 
          JS    0            
          PB     .8          
        PBSW     .8          
         CBD    2.293000E-09 
          CJ    0            
        CJSW    0            
          TT  132.000000E-09 
        CGSO    1.038000E-09 
        CGDO  291.900000E-12 
        CGBO    0            
         TOX  100.000000E-09 
          XJ    0            
          UO  300            
       UCRIT   10.000000E+03 
       DELTA    0            
         ETA    0            
      DIOMOD    1            
         VFB    0            
        LETA    0            
        WETA    0            
          U0    0            
        TEMP    0            
         VDD    0            
       XPART    0            


**** 09/29/16 20:54:08 ********* PSpice 9.2 (Mar 2000) ******** ID# 1 ********

 * D:\Radio\Devices\PS3608L\OrCad\Rectifier.sch


 ****     Current Controlled Switch MODEL PARAMETERS


******************************************************************************




               X_U1A.x_lm358.sw2 
         RON    1            
        ROFF   10.000000E+06 
         ION    0            
        IOFF   -1.000000E-06 


               X_U1A.x_lm358.sw1 
         RON    1            
        ROFF   10.000000E+06 
         ION   -1.000000E-06 
        IOFF    0            


               X_U1A.x_lm358.sw3 
         RON    1            
        ROFF   10.000000E+06 
         ION   -1.000000E-06 
        IOFF    0            


               X_U1A.x_lm358.sw4 
         RON    1            
        ROFF   10.000000E+06 
         ION    0            
        IOFF   -1.000000E-06 


**** 09/29/16 20:54:08 ********* PSpice 9.2 (Mar 2000) ******** ID# 1 ********

 * D:\Radio\Devices\PS3608L\OrCad\Rectifier.sch


 ****     INITIAL TRANSIENT SOLUTION       TEMPERATURE =   27.000 DEG C


******************************************************************************



 NODE   VOLTAGE     NODE   VOLTAGE     NODE   VOLTAGE     NODE   VOLTAGE


($N_0001)    9.3499                   ($N_0002)    9.3540                       

($N_0003)   10.0000                   ($N_0004)   10.0000                       

($N_0005)     .0057                   ($N_0006)    0.0000                       

($N_0007)-15.56E-21                   ($N_0008)   10.0000                       

(X_U1A.x_lm358.6)    1.4923           (X_U1A.x_lm358.7)   -2.0247               

(X_U1A.x_lm358.8)   -2.0247           (X_U1A.x_lm358.9)    0.0000               

(X_U1A.x_lm358.a)     .0406           (X_U1A.x_lm358.b)     .0406               

(X_U1A.x_lm358.10)    9.9923          (X_U1A.x_lm358.11) 106.1E-09              

(X_U1A.x_lm358.12)     .0776          (X_U1A.x_lm358.13)    9.9923              

(X_U1A.x_lm358.14)    9.9652          (X_U1A.x_lm358.53)    8.5000              

(X_U1A.x_lm358.54)     .8220          (X_U1A.x_lm358.90)  -40.6100              

(X_U1A.x_lm358.91)   40.0000          (X_U1A.x_lm358.92)  -40.0000              

(X_U1A.x_lm358.99)    5.0000          




    VOLTAGE SOURCE CURRENTS
    NAME         CURRENT

    V_V2        -1.117E-03
    V_V1         7.780E-22
    V_V4        -4.675E+00
    X_U1A.x_lm358.vb   1.492E-05
    X_U1A.x_lm358.vc   8.495E-12
    X_U1A.x_lm358.ve  -4.061E-02
    X_U1A.x_lm358.vlim  -4.061E-02
    X_U1A.x_lm358.vlp  -8.061E-11
    X_U1A.x_lm358.vln   1.379E-05

    TOTAL POWER DISSIPATION   4.68E+01  WATTS



          JOB CONCLUDED

          TOTAL JOB TIME             .05
